T413C 000:006.120   SEGGER J-Link V7.98c Log File
T413C 000:006.299   DLL Compiled: Aug  7 2024 15:37:06
T413C 000:006.308   Logging started @ 2025-10-29 15:38
T413C 000:006.315   Process: C:\Users\chris\AppData\Local\Keil_v5\UV4\UV4.exe
T413C 000:006.325 - 6.322ms
T413C 000:006.340 JLINK_SetWarnOutHandler(...)
T413C 000:006.348 - 0.009ms
T413C 000:006.357 JLINK_OpenEx(...)
T413C 000:008.144   Firmware: J-Link OB-SAM3U128 V3 compiled Feb  2 2021 16:48:08
T413C 000:008.734   Firmware: J-Link OB-SAM3U128 V3 compiled Feb  2 2021 16:48:08
T413C 000:027.671   Hardware: V3.00
T413C 000:027.704   S/N: 483057986
T413C 000:027.714   OEM: SEGGER
T413C 000:027.725   Feature(s): None
T413C 000:028.377   Bootloader: (Could not read)
T413C 000:029.045   TELNET listener socket opened on port 19021
T413C 000:029.198   WEBSRV WEBSRV_Init(): Starting webserver thread(s)
T413C 000:029.458   WEBSRV Webserver running on local port 19080
T413C 000:029.616   Looking for J-Link GUI Server exe at: C:\Users\chris\AppData\Local\Keil_v5\ARM\Segger\JLinkGUIServer.exe
T413C 000:029.722   Looking for J-Link GUI Server exe at: C:\Program Files\SEGGER\JLink_V812f\JLinkGUIServer.exe
T413C 000:029.762   Forking J-Link GUI Server: C:\Program Files\SEGGER\JLink_V812f\JLinkGUIServer.exe
T413C 000:060.406   J-Link GUI Server info: "J-Link GUI server V8.12f "
T413C 000:065.334 - 58.970ms returns "O.K."
T413C 000:065.389 JLINK_GetEmuCaps()
T413C 000:065.400 - 0.008ms returns 0xB9FE5BBF
T413C 000:065.420 JLINK_TIF_GetAvailable(...)
T413C 000:065.625 - 0.205ms
T413C 000:065.637 JLINK_SetErrorOutHandler(...)
T413C 000:065.643 - 0.007ms
T413C 000:065.665 JLINK_ExecCommand("ProjectFile = "C:\Users\chris\Desktop\DA145xx_SDK\6.0.22.1401\projects\target_apps\peripheral_examples\blinky\blinky\Keil_5\JLinkSettings.ini"", ...). 
T413C 000:086.970 - 21.305ms returns 0x00
T413C 000:087.105 JLINK_ExecCommand("Device = ARMCM0P", ...). 
T413C 000:088.413   Device "CORTEX-M0" selected.
T413C 000:088.727 - 1.609ms returns 0x00
T413C 000:088.740 JLINK_ExecCommand("DisableConnectionTimeout", ...). 
T413C 000:088.748   ERROR: Unknown command
T413C 000:088.756 - 0.009ms returns 0x01
T413C 000:088.762 JLINK_GetHardwareVersion()
T413C 000:088.771 - 0.005ms returns 30000
T413C 000:088.777 JLINK_GetDLLVersion()
T413C 000:088.781 - 0.004ms returns 79803
T413C 000:088.787 JLINK_GetOEMString(...)
T413C 000:088.798 JLINK_GetFirmwareString(...)
T413C 000:088.803 - 0.005ms
T413C 000:088.889 JLINK_GetDLLVersion()
T413C 000:088.896 - 0.006ms returns 79803
T413C 000:088.903 JLINK_GetCompileDateTime()
T413C 000:088.908 - 0.005ms
T413C 000:088.939 JLINK_GetFirmwareString(...)
T413C 000:088.945 - 0.006ms
T413C 000:088.971 JLINK_GetHardwareVersion()
T413C 000:088.977 - 0.005ms returns 30000
T413C 000:089.028 JLINK_GetSN()
T413C 000:089.035 - 0.006ms returns 483057986
T413C 000:089.063 JLINK_GetOEMString(...)
T413C 000:089.089 JLINK_TIF_Select(JLINKARM_TIF_SWD)
T413C 000:090.092 - 1.003ms returns 0x00
T413C 000:090.116 JLINK_HasError()
T413C 000:090.128 JLINK_SetSpeed(5000)
T413C 000:090.264 - 0.137ms
T413C 000:090.283 JLINK_GetId()
T413C 000:091.133   Found SW-DP with ID 0x0BC11477
T413C 000:093.599   DPIDR: 0x0BC11477
T413C 000:093.645   CoreSight SoC-400 or earlier
T413C 000:093.672   Scanning AP map to find all available APs
T413C 000:094.213   AP[1]: Stopped AP scan as end of AP map has been reached
T413C 000:094.269   AP[0]: AHB-AP (IDR: 0x04770031)
T413C 000:094.302   Iterating through AP map to find AHB-AP to use
T413C 000:094.841   AP[0]: Core found
T413C 000:094.890   AP[0]: AHB-AP ROM base: 0xE00FF000
T413C 000:095.159   CPUID register: 0x410CC601. Implementer code: 0x41 (ARM)
T413C 000:095.190   Found Cortex-M0 r0p1, Little endian.
T413C 000:095.480   -- Max. mem block: 0x00004FC8
T413C 000:095.825   CPU_ReadMem(4 bytes @ 0xE000EDF0)
T413C 000:096.113   CPU_WriteMem(4 bytes @ 0xE000EDF0)
T413C 000:096.475   CPU_ReadMem(4 bytes @ 0xE0002000)
T413C 000:097.220   FPUnit: 4 code (BP) slots and 0 literal slots
T413C 000:097.246   CPU_ReadMem(4 bytes @ 0xE000EDFC)
T413C 000:097.791   CPU_WriteMem(4 bytes @ 0xE000EDFC)
T413C 000:098.239   CPU_ReadMem(4 bytes @ 0xE0001000)
T413C 000:098.615   CPU_WriteMem(4 bytes @ 0xE0001000)
T413C 000:099.147   CoreSight components:
T413C 000:099.262   ROMTbl[0] @ E00FF000
T413C 000:099.275   CPU_ReadMem(64 bytes @ 0xE00FF000)
T413C 000:100.130   CPU_ReadMem(32 bytes @ 0xE000EFE0)
T413C 000:100.688   [0][0]: E000E000 CID B105E00D PID 000BB008 SCS
T413C 000:100.697   CPU_ReadMem(32 bytes @ 0xE0001FE0)
T413C 000:101.227   [0][1]: E0001000 CID B105E00D PID 000BB00A DWT
T413C 000:101.238   CPU_ReadMem(32 bytes @ 0xE0002FE0)
T413C 000:101.735   [0][2]: E0002000 CID B105E00D PID 000BB00B FPB
T413C 000:101.997 - 11.713ms returns 0x0BC11477
T413C 000:102.062 JLINK_GetDLLVersion()
T413C 000:102.069 - 0.007ms returns 79803
T413C 000:102.080 JLINK_CORE_GetFound()
T413C 000:102.086 - 0.006ms returns 0x60000FF
T413C 000:102.094 JLINK_GetDebugInfo(0x100 = JLINKARM_ROM_TABLE_ADDR_INDEX)
T413C 000:102.114   Value=0xE00FF000
T413C 000:102.123 - 0.029ms returns 0
T413C 000:102.159 JLINK_GetDebugInfo(0x100 = JLINKARM_ROM_TABLE_ADDR_INDEX)
T413C 000:102.164   Value=0xE00FF000
T413C 000:102.171 - 0.012ms returns 0
T413C 000:102.177 JLINK_GetDebugInfo(0x101 = JLINKARM_DEBUG_INFO_ETM_ADDR_INDEX)
T413C 000:102.181   Value=0x00000000
T413C 000:102.188 - 0.012ms returns 0
T413C 000:102.195 JLINK_ReadMemEx(0xE0041FF0, 0x10 Bytes, Flags = 0x02000004)
T413C 000:102.214   CPU_ReadMem(16 bytes @ 0xE0041FF0)
T413C 000:102.662   Data:  00 00 00 00 00 00 00 00 00 00 00 00 00 00 00 00
T413C 000:102.671 - 0.476ms returns 16 (0x10)
T413C 000:102.677 JLINK_GetDebugInfo(0x102 = JLINKARM_DEBUG_INFO_MTB_ADDR_INDEX)
T413C 000:102.682   Value=0x00000000
T413C 000:102.689 - 0.011ms returns 0
T413C 000:102.695 JLINK_GetDebugInfo(0x103 = JLINKARM_DEBUG_INFO_TPIU_ADDR_INDEX)
T413C 000:102.699   Value=0x00000000
T413C 000:102.706 - 0.011ms returns 0
T413C 000:102.712 JLINK_GetDebugInfo(0x104 = JLINKARM_DEBUG_INFO_ITM_ADDR_INDEX)
T413C 000:102.717   Value=0xE0000000
T413C 000:102.723 - 0.011ms returns 0
T413C 000:102.729 JLINK_GetDebugInfo(0x105 = JLINKARM_DEBUG_INFO_DWT_ADDR_INDEX)
T413C 000:102.734   Value=0xE0001000
T413C 000:102.741 - 0.011ms returns 0
T413C 000:102.746 JLINK_GetDebugInfo(0x106 = JLINKARM_DEBUG_INFO_FPB_ADDR_INDEX)
T413C 000:102.751   Value=0xE0002000
T413C 000:102.758 - 0.011ms returns 0
T413C 000:102.763 JLINK_GetDebugInfo(0x107 = JLINKARM_DEBUG_INFO_NVIC_ADDR_INDEX)
T413C 000:102.768   Value=0xE000E000
T413C 000:102.775 - 0.011ms returns 0
T413C 000:102.781 JLINK_GetDebugInfo(0x10C = JLINKARM_DEBUG_INFO_DBG_ADDR_INDEX)
T413C 000:102.785   Value=0xE000EDF0
T413C 000:102.792 - 0.012ms returns 0
T413C 000:102.798 JLINK_GetDebugInfo(0x01 = Unknown)
T413C 000:102.803   Value=0x00000000
T413C 000:102.809 - 0.011ms returns 0
T413C 000:102.815 JLINK_ReadMemU32(0xE000ED00, 0x1 Items)
T413C 000:102.821   CPU_ReadMem(4 bytes @ 0xE000ED00)
T413C 000:103.153   Data:  01 C6 0C 41
T413C 000:103.162   Debug reg: CPUID
T413C 000:103.169 - 0.354ms returns 1 (0x1)
T413C 000:103.176 JLINK_GetDebugInfo(0x10F = JLINKARM_DEBUG_INFO_HAS_CORTEX_M_SECURITY_EXT_INDEX)
T413C 000:103.181   Value=0x00000000
T413C 000:103.188 - 0.012ms returns 0
T413C 000:103.193 JLINK_HasError()
T413C 000:103.200 JLINK_SetResetType(JLINKARM_CM3_RESET_TYPE_NORMAL)
T413C 000:103.205 - 0.005ms returns JLINKARM_CM3_RESET_TYPE_NORMAL
T413C 000:103.211 JLINK_Reset()
T413C 000:103.221   CPU is running
T413C 000:103.229   CPU_WriteMem(4 bytes @ 0xE000EDF0)
T413C 000:103.618   CPU is running
T413C 000:103.626   CPU_WriteMem(4 bytes @ 0xE000EDFC)
T413C 000:103.979   Reset: Halt core after reset via DEMCR.VC_CORERESET.
T413C 000:104.410   Reset: Reset device via AIRCR.SYSRESETREQ.
T413C 000:104.418   CPU is running
T413C 000:104.426   CPU_WriteMem(4 bytes @ 0xE000ED0C)
T413C 000:158.498   CPU_ReadMem(4 bytes @ 0xE000EDF0)
T413C 000:158.953   CPU_ReadMem(4 bytes @ 0xE000EDF0)
T413C 000:162.391   CPU_WriteMem(4 bytes @ 0xE000EDFC)
T413C 000:168.498   CPU_ReadMem(4 bytes @ 0xE000EDF0)
T413C 000:172.475   CPU_WriteMem(4 bytes @ 0xE0002000)
T413C 000:172.985   CPU_ReadMem(4 bytes @ 0xE000EDFC)
T413C 000:173.457   CPU_ReadMem(4 bytes @ 0xE0001000)
T413C 000:173.934   CPU_WriteMem(4 bytes @ 0xE0001000)
T413C 000:174.388 - 71.175ms
T413C 000:174.482 JLINK_HasError()
T413C 000:174.499 JLINK_ReadReg(R15 (PC))
T413C 000:174.511 - 0.017ms returns 0x07FC00B4
T413C 000:174.520 JLINK_ReadReg(XPSR)
T413C 000:174.528 - 0.008ms returns 0xF1000000
T413C 000:174.538 JLINK_Halt()
T413C 000:174.546 - 0.007ms returns 0x00
T413C 000:174.555 JLINK_ReadMemU32(0xE000EDF0, 0x1 Items)
T413C 000:174.568   CPU_ReadMem(4 bytes @ 0xE000EDF0)
T413C 000:174.960   Data:  03 00 03 00
T413C 000:174.977   Debug reg: DHCSR
T413C 000:174.988 - 0.432ms returns 1 (0x1)
T413C 000:174.999 JLINK_WriteU32_64(0xE000EDF0, 0xA05F0003)
T413C 000:175.006   Debug reg: DHCSR
T413C 000:175.563   CPU_WriteMem(4 bytes @ 0xE000EDF0)
T413C 000:175.962 - 0.962ms returns 0 (0x00000000)
T413C 000:175.973 JLINK_WriteU32_64(0xE000EDFC, 0x01000000)
T413C 000:175.981   Debug reg: DEMCR
T413C 000:175.995   CPU_WriteMem(4 bytes @ 0xE000EDFC)
T413C 000:176.336 - 0.362ms returns 0 (0x00000000)
T413C 000:176.510 JLINK_GetHWStatus(...)
T413C 000:176.710 - 0.203ms returns 0
T413C 000:176.799 JLINK_GetNumBPUnits(Type = 0xFFFFFF00)
T413C 000:176.808 - 0.009ms returns 0x04
T413C 000:176.817 JLINK_GetNumBPUnits(Type = 0xF0)
T413C 000:176.826 - 0.008ms returns 0x2000
T413C 000:176.835 JLINK_GetNumWPUnits()
T413C 000:176.843 - 0.008ms returns 2
T413C 000:176.919 JLINK_GetSpeed()
T413C 000:176.927 - 0.008ms returns 2667
T413C 000:176.980 JLINK_ReadMemU32(0xE000E004, 0x1 Items)
T413C 000:176.993   CPU_ReadMem(4 bytes @ 0xE000E004)
T413C 000:177.339   Data:  00 00 00 00
T413C 000:177.352 - 0.371ms returns 1 (0x1)
T413C 000:177.374 JLINK_HasError()
T413C 000:177.385 JLINK_ReadReg(R15 (PC))
T413C 000:177.395 - 0.010ms returns 0x07FC00B4
T413C 000:177.404 JLINK_ReadReg(XPSR)
T413C 000:177.412 - 0.008ms returns 0xF1000000
T413C 001:465.107 JLINK_ReadMemEx(0x07FC00B4, 0x3C Bytes, Flags = 0x02000000)
T413C 001:465.158   CPU_ReadMem(60 bytes @ 0x07FC00B4)
T413C 001:465.927   Data:  0F 48 80 47 0F 48 00 47 04 20 71 46 08 42 03 D0 ...
T413C 001:465.938 - 0.830ms returns 60 (0x3C)
T413C 001:465.946 JLINK_ReadMemEx(0x07FC00B4, 0x2 Bytes, Flags = 0x02000000)
T413C 001:465.953   CPU_ReadMem(2 bytes @ 0x07FC00B4)
T413C 001:466.271   Data:  0F 48
T413C 001:466.279 - 0.333ms returns 2 (0x2)
T413C 001:466.375 JLINK_ReadMemEx(0x07FC00B6, 0x2 Bytes, Flags = 0x02000000)
T413C 001:466.382   CPU_ReadMem(2 bytes @ 0x07FC00B6)
T413C 001:466.742   Data:  80 47
T413C 001:466.750 - 0.375ms returns 2 (0x2)
T413C 001:466.911 JLINK_ReadMemEx(0x07FC00B6, 0x2 Bytes, Flags = 0x02000000)
T413C 001:466.923   CPU_ReadMem(2 bytes @ 0x07FC00B6)
T413C 001:467.230   Data:  80 47
T413C 001:467.261 - 0.351ms returns 2 (0x2)
T413C 001:467.268 JLINK_ReadMemEx(0x07FC00B8, 0x3C Bytes, Flags = 0x02000000)
T413C 001:467.275   CPU_ReadMem(60 bytes @ 0x07FC00B8)
T413C 001:467.975   Data:  0F 48 00 47 04 20 71 46 08 42 03 D0 EF F3 09 80 ...
T413C 001:467.983 - 0.714ms returns 60 (0x3C)
T413C 001:467.990 JLINK_ReadMemEx(0x07FC00B8, 0x2 Bytes, Flags = 0x02000000)
T413C 001:467.996   CPU_ReadMem(2 bytes @ 0x07FC00B8)
T413C 001:468.363   Data:  0F 48
T413C 001:468.370 - 0.380ms returns 2 (0x2)
T413C 001:468.380 JLINK_ReadMemEx(0x07FC00B8, 0x3C Bytes, Flags = 0x02000000)
T413C 001:468.386   CPU_ReadMem(60 bytes @ 0x07FC00B8)
T413C 001:469.097   Data:  0F 48 00 47 04 20 71 46 08 42 03 D0 EF F3 09 80 ...
T413C 001:469.106 - 0.726ms returns 60 (0x3C)
T413C 001:469.113 JLINK_ReadMemEx(0x07FC00B8, 0x2 Bytes, Flags = 0x02000000)
T413C 001:469.119   CPU_ReadMem(2 bytes @ 0x07FC00B8)
T413C 001:469.498   Data:  0F 48
T413C 001:469.506 - 0.393ms returns 2 (0x2)
T413C 001:469.513 JLINK_ReadMemEx(0x07FC00BA, 0x2 Bytes, Flags = 0x02000000)
T413C 001:469.519   CPU_ReadMem(2 bytes @ 0x07FC00BA)
T413C 001:469.859   Data:  00 47
T413C 001:469.885 - 0.372ms returns 2 (0x2)
T413C 001:469.894 JLINK_ReadMemEx(0x07FC00BA, 0x2 Bytes, Flags = 0x02000000)
T413C 001:469.900   CPU_ReadMem(2 bytes @ 0x07FC00BA)
T413C 001:470.236   Data:  00 47
T413C 001:470.244 - 0.350ms returns 2 (0x2)
T413C 001:470.252 JLINK_ReadMemEx(0x07FC00BC, 0x3C Bytes, Flags = 0x02000000)
T413C 001:470.258   CPU_ReadMem(60 bytes @ 0x07FC00BC)
T413C 001:470.915   Data:  04 20 71 46 08 42 03 D0 EF F3 09 80 0C 49 08 47 ...
T413C 001:470.923 - 0.671ms returns 60 (0x3C)
T413C 001:470.929 JLINK_ReadMemEx(0x07FC00BC, 0x2 Bytes, Flags = 0x02000000)
T413C 001:470.936   CPU_ReadMem(2 bytes @ 0x07FC00BC)
T413C 001:471.286   Data:  04 20
T413C 001:471.294 - 0.364ms returns 2 (0x2)
T413C 001:733.686 JLINK_HasError()
T413C 001:733.719 JLINK_SetResetType(JLINKARM_CM3_RESET_TYPE_NORMAL)
T413C 001:733.728 - 0.008ms returns JLINKARM_CM3_RESET_TYPE_NORMAL
T413C 001:733.734 JLINK_Reset()
T413C 001:733.750   CPU_WriteMem(4 bytes @ 0xE000EDF0)
T413C 001:734.098   CPU_WriteMem(4 bytes @ 0xE000EDFC)
T413C 001:734.505   Reset: Halt core after reset via DEMCR.VC_CORERESET.
T413C 001:734.895   Reset: Reset device via AIRCR.SYSRESETREQ.
T413C 001:734.904   CPU_WriteMem(4 bytes @ 0xE000ED0C)
T413C 001:789.354   CPU_ReadMem(4 bytes @ 0xE000EDF0)
T413C 001:789.932   CPU_ReadMem(4 bytes @ 0xE000EDF0)
T413C 001:791.144   CPU_WriteMem(4 bytes @ 0xE000EDFC)
T413C 001:796.884   CPU_ReadMem(4 bytes @ 0xE000EDF0)
T413C 001:800.685   CPU_WriteMem(4 bytes @ 0xE0002000)
T413C 001:801.058   CPU_ReadMem(4 bytes @ 0xE000EDFC)
T413C 001:801.385   CPU_ReadMem(4 bytes @ 0xE0001000)
T413C 001:801.711   CPU_WriteMem(4 bytes @ 0xE0001000)
T413C 001:802.075 - 68.340ms
T413C 001:802.205 JLINK_HasError()
T413C 001:802.225 JLINK_ReadReg(R15 (PC))
T413C 001:802.245 - 0.019ms returns 0x07FC00B4
T413C 001:802.260 JLINK_ReadReg(XPSR)
T413C 001:802.274 - 0.013ms returns 0xF1000000
T413C 001:802.360 JLINK_HasError()
T413C 001:802.393 JLINK_ReadReg(R0)
T413C 001:802.407 - 0.030ms returns 0xFFFFFFFF
T413C 001:802.422 JLINK_ReadReg(R1)
T413C 001:802.436 - 0.013ms returns 0xFFFFFFFF
T413C 001:802.452 JLINK_ReadReg(R2)
T413C 001:802.466 - 0.013ms returns 0xFFFFFFFF
T413C 001:802.480 JLINK_ReadReg(R3)
T413C 001:802.494 - 0.013ms returns 0xFFFFFFFF
T413C 001:802.508 JLINK_ReadReg(R4)
T413C 001:802.522 - 0.013ms returns 0xFFFFFFFF
T413C 001:802.537 JLINK_HasError()
T413C 001:822.612 JLINK_HasError()
T413C 001:822.653 JLINK_ReadReg(R0)
T413C 001:822.662 - 0.008ms returns 0xFFFFFFFF
T413C 001:822.668 JLINK_ReadReg(R1)
T413C 001:822.674 - 0.005ms returns 0xFFFFFFFF
T413C 001:822.679 JLINK_ReadReg(R2)
T413C 001:822.685 - 0.005ms returns 0xFFFFFFFF
T413C 001:822.691 JLINK_ReadReg(R3)
T413C 001:822.696 - 0.004ms returns 0xFFFFFFFF
T413C 001:822.701 JLINK_ReadReg(R4)
T413C 001:822.706 - 0.004ms returns 0xFFFFFFFF
T413C 001:822.711 JLINK_ReadReg(R5)
T413C 001:822.717 - 0.005ms returns 0xFFFFFFFF
T413C 001:822.722 JLINK_ReadReg(R6)
T413C 001:822.727 - 0.004ms returns 0xFFFFFFFF
T413C 001:822.733 JLINK_ReadReg(R7)
T413C 001:822.738 - 0.004ms returns 0xFFFFFFFF
T413C 001:822.746 JLINK_ReadReg(R8)
T413C 001:822.752 - 0.008ms returns 0xFFFFFFFF
T413C 001:822.757 JLINK_ReadReg(R9)
T413C 001:822.762 - 0.005ms returns 0xFFFFFFFF
T413C 001:822.768 JLINK_ReadReg(R10)
T413C 001:822.773 - 0.004ms returns 0xFFFFFFFF
T413C 001:822.778 JLINK_ReadReg(R11)
T413C 001:822.783 - 0.004ms returns 0xFFFFFFFF
T413C 001:822.789 JLINK_ReadReg(R12)
T413C 001:822.794 - 0.004ms returns 0xFFFFFFFF
T413C 001:822.800 JLINK_ReadReg(R13 (SP))
T413C 001:822.805 - 0.005ms returns 0x07FC87C0
T413C 001:822.810 JLINK_ReadReg(R14)
T413C 001:822.815 - 0.004ms returns 0xFFFFFFFF
T413C 001:822.821 JLINK_ReadReg(R15 (PC))
T413C 001:822.826 - 0.005ms returns 0x07FC00B4
T413C 001:822.832 JLINK_ReadReg(XPSR)
T413C 001:822.837 - 0.005ms returns 0xF1000000
T413C 001:822.842 JLINK_ReadReg(MSP)
T413C 001:822.847 - 0.004ms returns 0x07FC87C0
T413C 001:822.854 JLINK_ReadReg(PSP)
T413C 001:822.858 - 0.005ms returns 0xFFFFFFFC
T413C 001:822.920 JLINK_ReadReg(CFBP)
T413C 001:822.928 - 0.008ms returns 0x00000000
T413C 001:822.942 JLINK_ReadMemEx(0x50000012, 0x4 Bytes, Flags = 0x02000000)
T413C 001:822.955   CPU_ReadMem(4 bytes @ 0x50000012)
T413C 001:823.414   Data:  A2 01 D6 00
T413C 001:823.424 - 0.481ms returns 4 (0x4)
T413C 001:823.498 JLINK_WriteMemEx(0x50000012, 0x00000004 Bytes, Flags = 0x02000000)
T413C 001:823.503   Data:  A2 01 00 00
T413C 001:823.859   CPU_WriteMem(4 bytes @ 0x50000012)
T413C 001:824.333 - 0.834ms returns 0x4
T413C 001:824.363 JLINK_HasError()
T413C 001:824.370 JLINK_SetResetType(JLINKARM_CM3_RESET_TYPE_NORMAL)
T413C 001:824.376 - 0.005ms returns JLINKARM_CM3_RESET_TYPE_NORMAL
T413C 001:824.381 JLINK_Reset()
T413C 001:824.390   CPU_WriteMem(4 bytes @ 0xE000EDF0)
T413C 001:824.688   CPU_WriteMem(4 bytes @ 0xE000EDFC)
T413C 001:825.018   Reset: Halt core after reset via DEMCR.VC_CORERESET.
T413C 001:825.356   Reset: Reset device via AIRCR.SYSRESETREQ.
T413C 001:825.365   CPU_WriteMem(4 bytes @ 0xE000ED0C)
T413C 001:879.412   CPU_ReadMem(4 bytes @ 0xE000EDF0)
T413C 001:880.088   CPU_ReadMem(4 bytes @ 0xE000EDF0)
T413C 001:880.688   CPU_WriteMem(4 bytes @ 0xE000EDFC)
T413C 001:886.917   CPU_ReadMem(4 bytes @ 0xE000EDF0)
T413C 001:890.632   CPU_WriteMem(4 bytes @ 0xE0002000)
T413C 001:891.240   CPU_ReadMem(4 bytes @ 0xE000EDFC)
T413C 001:891.733   CPU_ReadMem(4 bytes @ 0xE0001000)
T413C 001:892.274   CPU_WriteMem(4 bytes @ 0xE0001000)
T413C 001:892.728 - 68.345ms
T413C 001:892.845 JLINK_HasError()
T413C 001:892.866 JLINK_ReadReg(R15 (PC))
T413C 001:892.888 - 0.022ms returns 0x07FC00B4
T413C 001:892.905 JLINK_ReadReg(XPSR)
T413C 001:892.920 - 0.015ms returns 0xF1000000
T413C 001:893.011 JLINK_HasError()
T413C 001:893.030 JLINK_ReadReg(R0)
T413C 001:893.044 - 0.014ms returns 0xFFFFFFFF
T413C 001:893.060 JLINK_ReadReg(R1)
T413C 001:893.075 - 0.014ms returns 0xFFFFFFFF
T413C 001:893.090 JLINK_ReadReg(R2)
T413C 001:893.105 - 0.014ms returns 0xFFFFFFFF
T413C 001:893.122 JLINK_ReadReg(R3)
T413C 001:893.136 - 0.014ms returns 0xFFFFFFFF
T413C 001:893.152 JLINK_ReadReg(R4)
T413C 001:893.166 - 0.014ms returns 0xFFFFFFFF
T413C 001:893.183 JLINK_HasError()
T413C 001:924.243 JLINK_WriteMemEx(0x07FC0000, 0x00001000 Bytes, Flags = 0x02000000)
T413C 001:924.278   Data:  C0 87 FC 07 B5 00 FC 07 BD 00 FC 07 D5 00 FC 07 ...
T413C 001:924.671   CPU_WriteMem(4096 bytes @ 0x07FC0000)
T413C 001:946.699 - 22.455ms returns 0x1000
T413C 001:947.782 JLINK_WriteMemEx(0x07FC1000, 0x00000298 Bytes, Flags = 0x02000000)
T413C 001:947.822   Data:  05 91 04 90 60 02 41 0F 02 29 05 D0 01 CF 00 22 ...
T413C 001:947.858   CPU_WriteMem(664 bytes @ 0x07FC1000)
T413C 001:952.030 - 4.247ms returns 0x298
T413C 002:007.279 JLINK_HasError()
T413C 002:007.359 JLINK_SetResetType(JLINKARM_CM3_RESET_TYPE_NORMAL)
T413C 002:007.377 - 0.017ms returns JLINKARM_CM3_RESET_TYPE_NORMAL
T413C 002:007.394 JLINK_Reset()
T413C 002:007.422   CPU_ReadMem(4 bytes @ 0x07FC1000)
T413C 002:008.129   CPU_WriteMem(4 bytes @ 0x07FC1000)
T413C 002:008.813   CPU_WriteMem(4 bytes @ 0xE000EDF0)
T413C 002:009.466   CPU_WriteMem(4 bytes @ 0xE000EDFC)
T413C 002:010.212   Reset: Halt core after reset via DEMCR.VC_CORERESET.
T413C 002:011.215   Reset: Reset device via AIRCR.SYSRESETREQ.
T413C 002:011.288   CPU_WriteMem(4 bytes @ 0xE000ED0C)
T413C 002:066.948   CPU_ReadMem(4 bytes @ 0xE000EDF0)
T413C 002:067.602   CPU_ReadMem(4 bytes @ 0xE000EDF0)
T413C 002:068.310   CPU_WriteMem(4 bytes @ 0xE000EDFC)
T413C 002:075.120   CPU_ReadMem(4 bytes @ 0xE000EDF0)
T413C 002:078.650   CPU_WriteMem(4 bytes @ 0xE0002000)
T413C 002:079.164   CPU_ReadMem(4 bytes @ 0xE000EDFC)
T413C 002:079.636   CPU_ReadMem(4 bytes @ 0xE0001000)
T413C 002:080.101   CPU_WriteMem(4 bytes @ 0xE0001000)
T413C 002:080.480 - 73.085ms
T413C 002:080.585 JLINK_HasError()
T413C 002:080.606 JLINK_ReadReg(R15 (PC))
T413C 002:080.630 - 0.023ms returns 0x07FC00B4
T413C 002:080.648 JLINK_ReadReg(XPSR)
T413C 002:080.666 - 0.017ms returns 0xF1000000
T413C 002:080.779 JLINK_HasError()
T413C 002:080.803 JLINK_ReadReg(R0)
T413C 002:080.818 - 0.015ms returns 0xFFFFFFFF
T413C 002:080.834 JLINK_ReadReg(R1)
T413C 002:080.848 - 0.014ms returns 0xFFFFFFFF
T413C 002:080.864 JLINK_ReadReg(R2)
T413C 002:080.879 - 0.014ms returns 0xFFFFFFFF
T413C 002:080.895 JLINK_ReadReg(R3)
T413C 002:080.910 - 0.014ms returns 0xFFFFFFFF
T413C 002:080.926 JLINK_ReadReg(R4)
T413C 002:080.940 - 0.014ms returns 0xFFFFFFFF
T413C 002:080.968 JLINK_HasError()
T413C 002:110.222 JLINK_ReadMemEx(0x07FC00B4, 0x3C Bytes, Flags = 0x02000000)
T413C 002:110.276   CPU_ReadMem(60 bytes @ 0x07FC00B4)
T413C 002:111.492   Data:  0F 48 80 47 0F 48 00 47 04 20 71 46 08 42 03 D0 ...
T413C 002:111.509 - 1.287ms returns 60 (0x3C)
T413C 002:111.518 JLINK_ReadMemEx(0x07FC00B4, 0x2 Bytes, Flags = 0x02000000)
T413C 002:111.526   CPU_ReadMem(2 bytes @ 0x07FC00B4)
T413C 002:111.831   Data:  0F 48
T413C 002:111.839 - 0.321ms returns 2 (0x2)
T413C 002:111.848 JLINK_ReadMemEx(0x07FC00B6, 0x2 Bytes, Flags = 0x02000000)
T413C 002:111.854   CPU_ReadMem(2 bytes @ 0x07FC00B6)
T413C 002:112.201   Data:  80 47
T413C 002:112.210 - 0.362ms returns 2 (0x2)
T413C 002:112.230 JLINK_ReadMemEx(0x07FC00B6, 0x2 Bytes, Flags = 0x02000000)
T413C 002:112.237   CPU_ReadMem(2 bytes @ 0x07FC00B6)
T413C 002:112.794   Data:  80 47
T413C 002:112.835 - 0.604ms returns 2 (0x2)
T413C 002:112.855 JLINK_ReadMemEx(0x07FC00B8, 0x3C Bytes, Flags = 0x02000000)
T413C 002:112.872   CPU_ReadMem(60 bytes @ 0x07FC00B8)
T413C 002:114.518   Data:  0F 48 00 47 04 20 71 46 08 42 03 D0 EF F3 09 80 ...
T413C 002:114.552 - 1.697ms returns 60 (0x3C)
T413C 002:114.565 JLINK_ReadMemEx(0x07FC00B8, 0x2 Bytes, Flags = 0x02000000)
T413C 002:114.581   CPU_ReadMem(2 bytes @ 0x07FC00B8)
T413C 002:115.014   Data:  0F 48
T413C 002:115.051 - 0.485ms returns 2 (0x2)
T413C 002:175.824 JLINK_HasError()
T413C 002:175.887 JLINK_ReadReg(R0)
T413C 002:175.897 - 0.009ms returns 0xFFFFFFFF
T413C 002:175.912 JLINK_ReadReg(R1)
T413C 002:175.918 - 0.005ms returns 0xFFFFFFFF
T413C 002:175.924 JLINK_ReadReg(R2)
T413C 002:175.929 - 0.005ms returns 0xFFFFFFFF
T413C 002:175.934 JLINK_ReadReg(R3)
T413C 002:175.939 - 0.004ms returns 0xFFFFFFFF
T413C 002:175.946 JLINK_ReadReg(R4)
T413C 002:175.951 - 0.004ms returns 0xFFFFFFFF
T413C 002:175.956 JLINK_ReadReg(R5)
T413C 002:175.961 - 0.004ms returns 0xFFFFFFFF
T413C 002:175.967 JLINK_ReadReg(R6)
T413C 002:175.972 - 0.004ms returns 0xFFFFFFFF
T413C 002:175.977 JLINK_ReadReg(R7)
T413C 002:175.982 - 0.004ms returns 0xFFFFFFFF
T413C 002:175.988 JLINK_ReadReg(R8)
T413C 002:175.993 - 0.005ms returns 0xFFFFFFFF
T413C 002:175.999 JLINK_ReadReg(R9)
T413C 002:176.004 - 0.005ms returns 0xFFFFFFFF
T413C 002:176.009 JLINK_ReadReg(R10)
T413C 002:176.014 - 0.004ms returns 0xFFFFFFFF
T413C 002:176.021 JLINK_ReadReg(R11)
T413C 002:176.026 - 0.005ms returns 0xFFFFFFFF
T413C 002:176.031 JLINK_ReadReg(R12)
T413C 002:176.036 - 0.004ms returns 0xFFFFFFFF
T413C 002:176.042 JLINK_ReadReg(R13 (SP))
T413C 002:176.047 - 0.005ms returns 0x07FC87C0
T413C 002:176.053 JLINK_ReadReg(R14)
T413C 002:176.058 - 0.004ms returns 0xFFFFFFFF
T413C 002:176.064 JLINK_ReadReg(R15 (PC))
T413C 002:176.069 - 0.005ms returns 0x07FC00B4
T413C 002:176.165 JLINK_ReadReg(XPSR)
T413C 002:176.171 - 0.006ms returns 0xF1000000
T413C 002:176.177 JLINK_ReadReg(MSP)
T413C 002:176.182 - 0.005ms returns 0x07FC87C0
T413C 002:176.187 JLINK_ReadReg(PSP)
T413C 002:176.192 - 0.005ms returns 0xFFFFFFFC
T413C 002:176.198 JLINK_ReadReg(CFBP)
T413C 002:176.203 - 0.005ms returns 0x00000000
T413C 002:205.592 JLINK_ReadMemEx(0xE000ED28, 0x4 Bytes, Flags = 0x02000000)
T413C 002:205.643   CPU_ReadMem(4 bytes @ 0xE000ED28)
T413C 002:206.029   Data:  00 00 00 00
T413C 002:206.071 - 0.479ms returns 4 (0x4)
T413C 002:208.100 JLINK_HasError()
T413C 002:210.554 JLINK_ReadMemEx(0x07FC00B4, 0x3C Bytes, Flags = 0x02000000)
T413C 002:210.576   CPU_ReadMem(60 bytes @ 0x07FC00B4)
T413C 002:211.325   Data:  0F 48 80 47 0F 48 00 47 04 20 71 46 08 42 03 D0 ...
T413C 002:211.344 - 0.791ms returns 60 (0x3C)
T413C 002:211.352 JLINK_ReadMemEx(0x07FC00B4, 0x2 Bytes, Flags = 0x02000000)
T413C 002:211.358   CPU_ReadMem(2 bytes @ 0x07FC00B4)
T413C 002:211.741   Data:  0F 48
T413C 002:211.749 - 0.398ms returns 2 (0x2)
T413C 002:211.757 JLINK_ReadMemEx(0x07FC00B6, 0x2 Bytes, Flags = 0x02000000)
T413C 002:211.763   CPU_ReadMem(2 bytes @ 0x07FC00B6)
